
**** 01/18/22 14:36:08 ******** PSpice 9.2.3 (Jan 2002) ******* ID# 251265024 

 ** Profile: "SCHEMATIC1-Lab1_1.1"  [ D:\KMITL\YEAR1\term2\Circuit&Electronics\Lab1\lab1_1.1-SCHEMATIC1-Lab1_1.1.sim ] 


 ****     CIRCUIT DESCRIPTION


******************************************************************************




** Creating circuit file "lab1_1.1-SCHEMATIC1-Lab1_1.1.sim.cir" 
** WARNING: THIS AUTOMATICALLY GENERATED FILE MAY BE OVERWRITTEN BY SUBSEQUENT SIMULATIONS

*Libraries: 
* Local Libraries :
* From [PSPICE NETLIST] section of C:\Cadence\Orcad_9.2.3\tools\PSpice\PSpice.ini file:
.lib "nom.lib" 

*Analysis directives: 
.TRAN  0 100ns 0 1 
.PROBE V(alias(*)) I(alias(*)) W(alias(*)) D(alias(*)) NOISE(alias(*)) 
.INC ".\lab1_1.1-SCHEMATIC1.net" 



**** INCLUDING lab1_1.1-SCHEMATIC1.net ****
* source LAB1_1.1
R_6448         B A  49  
R_R2         A C  20  
R_R3         0 A  9  
V_V1         B 0 32
V_V2         C 0 158

**** RESUMING lab1_1.1-SCHEMATIC1-Lab1_1.1.sim.cir ****
.END

**** 01/18/22 14:36:08 ******** PSpice 9.2.3 (Jan 2002) ******* ID# 251265024 

 ** Profile: "SCHEMATIC1-Lab1_1.1"  [ D:\KMITL\YEAR1\term2\Circuit&Electronics\Lab1\lab1_1.1-SCHEMATIC1-Lab1_1.1.sim ] 


 ****     INITIAL TRANSIENT SOLUTION       TEMPERATURE =   27.000 DEG C


******************************************************************************



 NODE   VOLTAGE     NODE   VOLTAGE     NODE   VOLTAGE     NODE   VOLTAGE


(    A)   47.1190  (    B)   32.0000  (    C)  158.0000  




    VOLTAGE SOURCE CURRENTS
    NAME         CURRENT

    V_V1         3.086E-01
    V_V2        -5.544E+00

    TOTAL POWER DISSIPATION   8.66E+02  WATTS



          JOB CONCLUDED

**** 01/18/22 14:36:08 ******** PSpice 9.2.3 (Jan 2002) ******* ID# 251265024 

 ** Profile: "SCHEMATIC1-Lab1_1.1"  [ D:\KMITL\YEAR1\term2\Circuit&Electronics\Lab1\lab1_1.1-SCHEMATIC1-Lab1_1.1.sim ] 


 ****     JOB STATISTICS SUMMARY


******************************************************************************



  Total job time (using Solver 0)   =         .02
