
**** 04/05/22 14:29:39 ******** PSpice 9.2.3 (Jan 2002) ******* ID# 251265024 

 ** Profile: "SCHEMATIC1-LAB11-1"  [ D:\KMITL\year1\term2\Circuit&Electronics\LAB\lab11-1-SCHEMATIC1-LAB11-1.sim ] 


 ****     CIRCUIT DESCRIPTION


******************************************************************************




** Creating circuit file "lab11-1-SCHEMATIC1-LAB11-1.sim.cir" 
** WARNING: THIS AUTOMATICALLY GENERATED FILE MAY BE OVERWRITTEN BY SUBSEQUENT SIMULATIONS

*Libraries: 
* Local Libraries :
* From [PSPICE NETLIST] section of C:\Cadence\Orcad_9.2.3\tools\PSpice\PSpice.ini file:
.lib "nom.lib" 

*Analysis directives: 
.TRAN  0 10s 0 0.01m 
.PROBE V(alias(*)) I(alias(*)) W(alias(*)) D(alias(*)) NOISE(alias(*)) 
.INC ".\lab11-1-SCHEMATIC1.net" 



**** INCLUDING lab11-1-SCHEMATIC1.net ****
* source LAB11-1
R_R11         0 N005752  2.5k  
R_R10         VB5 VC5  100k  
V_V1         VC5 0 12Vdc
V_V2         VIN5 0  
+SIN 0 10m 1k 0 0 0
Q_Q5         VC5 VB5 N005752 Q2N3904
R_R7         0 VO5  1k  
C_C9         VB5 VIN5  10u  
C_C10         VC5 VO5  10u  

**** RESUMING lab11-1-SCHEMATIC1-LAB11-1.sim.cir ****
.END

**** 04/05/22 14:29:39 ******** PSpice 9.2.3 (Jan 2002) ******* ID# 251265024 

 ** Profile: "SCHEMATIC1-LAB11-1"  [ D:\KMITL\year1\term2\Circuit&Electronics\LAB\lab11-1-SCHEMATIC1-LAB11-1.sim ] 


 ****     BJT MODEL PARAMETERS


******************************************************************************




               Q2N3904         
               NPN             
          IS    6.734000E-15 
          BF  416.4          
          NF    1            
         VAF   74.03         
         IKF     .06678      
         ISE    6.734000E-15 
          NE    1.259        
          BR     .7371       
          NR    1            
          RB   10            
          RC    1            
         CJE    4.493000E-12 
         MJE     .2593       
         CJC    3.638000E-12 
         MJC     .3085       
          TF  301.200000E-12 
         XTF    2            
         VTF    4            
         ITF     .4          
          TR  239.500000E-09 
         XTB    1.5          
          CN    2.42         
           D     .87         


**** 04/05/22 14:29:39 ******** PSpice 9.2.3 (Jan 2002) ******* ID# 251265024 

 ** Profile: "SCHEMATIC1-LAB11-1"  [ D:\KMITL\year1\term2\Circuit&Electronics\LAB\lab11-1-SCHEMATIC1-LAB11-1.sim ] 


 ****     INITIAL TRANSIENT SOLUTION       TEMPERATURE =   27.000 DEG C


******************************************************************************



 NODE   VOLTAGE     NODE   VOLTAGE     NODE   VOLTAGE     NODE   VOLTAGE


(  VB5)    9.7127  (  VC5)   12.0000  (  VO5)    0.0000  ( VIN5)    0.0000      

(N005752)    9.0137                   




    VOLTAGE SOURCE CURRENTS
    NAME         CURRENT

    V_V1        -3.605E-03
    V_V2         0.000E+00

    TOTAL POWER DISSIPATION   4.33E-02  WATTS



          JOB CONCLUDED

**** 04/05/22 14:29:39 ******** PSpice 9.2.3 (Jan 2002) ******* ID# 251265024 

 ** Profile: "SCHEMATIC1-LAB11-1"  [ D:\KMITL\year1\term2\Circuit&Electronics\LAB\lab11-1-SCHEMATIC1-LAB11-1.sim ] 


 ****     JOB STATISTICS SUMMARY


******************************************************************************



  Total job time (using Solver 0)   =       50.89
