
**** 03/29/22 15:43:28 ******** PSpice 9.2.3 (Jan 2002) ******* ID# 251265024 

 ** Profile: "SCHEMATIC1-LAB13"  [ D:\KMITL\year1\term2\Circuit&Electronics\LAB\lab13-SCHEMATIC1-LAB13.sim ] 


 ****     CIRCUIT DESCRIPTION


******************************************************************************




** Creating circuit file "lab13-SCHEMATIC1-LAB13.sim.cir" 
** WARNING: THIS AUTOMATICALLY GENERATED FILE MAY BE OVERWRITTEN BY SUBSEQUENT SIMULATIONS

*Libraries: 
* Local Libraries :
* From [PSPICE NETLIST] section of C:\Cadence\Orcad_9.2.3\tools\PSpice\PSpice.ini file:
.lib "nom.lib" 

*Analysis directives: 
.TRAN  0 50ms 0 
.PROBE V(alias(*)) I(alias(*)) W(alias(*)) D(alias(*)) NOISE(alias(*)) 
.INC ".\lab13-SCHEMATIC1.net" 



**** INCLUDING lab13-SCHEMATIC1.net ****
* source LAB13
V_V1         VIN N00346  
+SIN 0 10 50 0 0 0
D_D1         0 VIN D1N4001 
D_D3         N00346 0 D1N4001 
D_D2         VOUT VIN D1N4001 
C_C1         0 VOUT  100u  
D_D4         N00346 VOUT D1N4001 
R_R1         0 VOUT  1k  

**** RESUMING lab13-SCHEMATIC1-LAB13.sim.cir ****
.END

**** 03/29/22 15:43:28 ******** PSpice 9.2.3 (Jan 2002) ******* ID# 251265024 

 ** Profile: "SCHEMATIC1-LAB13"  [ D:\KMITL\year1\term2\Circuit&Electronics\LAB\lab13-SCHEMATIC1-LAB13.sim ] 


 ****     Diode MODEL PARAMETERS


******************************************************************************




               D1N4001         
          IS   14.110000E-09 
           N    1.984        
         IKF   94.81         
          BV   75            
         IBV   10.000000E-06 
          RS     .03389      
          TT    5.700000E-06 
         CJO   25.890000E-12 
          VJ     .3245       
           M     .44         


**** 03/29/22 15:43:28 ******** PSpice 9.2.3 (Jan 2002) ******* ID# 251265024 

 ** Profile: "SCHEMATIC1-LAB13"  [ D:\KMITL\year1\term2\Circuit&Electronics\LAB\lab13-SCHEMATIC1-LAB13.sim ] 


 ****     INITIAL TRANSIENT SOLUTION       TEMPERATURE =   27.000 DEG C


******************************************************************************



 NODE   VOLTAGE     NODE   VOLTAGE     NODE   VOLTAGE     NODE   VOLTAGE


(  VIN) 1.962E-18  ( VOUT) 3.883E-24  (N00346) 1.962E-18 




    VOLTAGE SOURCE CURRENTS
    NAME         CURRENT

    V_V1        -1.167E-25

    TOTAL POWER DISSIPATION   0.00E+00  WATTS



          JOB CONCLUDED

**** 03/29/22 15:43:28 ******** PSpice 9.2.3 (Jan 2002) ******* ID# 251265024 

 ** Profile: "SCHEMATIC1-LAB13"  [ D:\KMITL\year1\term2\Circuit&Electronics\LAB\lab13-SCHEMATIC1-LAB13.sim ] 


 ****     JOB STATISTICS SUMMARY


******************************************************************************



  Total job time (using Solver 0)   =         .02
