
**** 04/05/22 16:56:26 ******** PSpice 9.2.3 (Jan 2002) ******* ID# 251265024 

 ** Profile: "SCHEMATIC1-LAB11-3"  [ D:\KMITL\year1\term2\Circuit&Electronics\LAB\lab11-3-SCHEMATIC1-LAB11-3.sim ] 


 ****     CIRCUIT DESCRIPTION


******************************************************************************




** Creating circuit file "lab11-3-SCHEMATIC1-LAB11-3.sim.cir" 
** WARNING: THIS AUTOMATICALLY GENERATED FILE MAY BE OVERWRITTEN BY SUBSEQUENT SIMULATIONS

*Libraries: 
* Local Libraries :
* From [PSPICE NETLIST] section of C:\Cadence\Orcad_9.2.3\tools\PSpice\PSpice.ini file:
.lib "nom.lib" 

*Analysis directives: 
.TRAN  0 50ms 0 
.PROBE V(alias(*)) I(alias(*)) W(alias(*)) D(alias(*)) NOISE(alias(*)) 
.INC ".\lab11-3-SCHEMATIC1.net" 



**** INCLUDING lab11-3-SCHEMATIC1.net ****
* source LAB11-3
V_V3         VA 0 5Vdc
R_R2         N00859 VA  1  
R_R3         0 N00859  1k  
V_V1         V+ 0 12Vdc
X_U1A         N00826 N00859 V+ V- VO10 LM358
R_R4         N00826 N00799  1k  
V_V2         V- 0 -12Vdc
R_R5         N00799 N00772  1k  
R_R6         N00772 N00745  1k  
R_R7         N00745 0  2k  
R_R8         G N00745  2k  
R_R9         VA N00772  2k  
R_R10         G N00799  2k  
R_R11         VA N00826  2k  
R_R1         0 VO10  1k  

**** RESUMING lab11-3-SCHEMATIC1-LAB11-3.sim.cir ****
.END

**** 04/05/22 16:56:26 ******** PSpice 9.2.3 (Jan 2002) ******* ID# 251265024 

 ** Profile: "SCHEMATIC1-LAB11-3"  [ D:\KMITL\year1\term2\Circuit&Electronics\LAB\lab11-3-SCHEMATIC1-LAB11-3.sim ] 


 ****     Diode MODEL PARAMETERS


******************************************************************************




               X_U1A.x_lm358.dx 
          IS  800.000000E-18 
          RS    1            


               X_U1A.x_lm358.dy 
          IS  800.000000E-18 
          RS    1.000000E-03 
         CJO   10.000000E-12 


**** 04/05/22 16:56:26 ******** PSpice 9.2.3 (Jan 2002) ******* ID# 251265024 

 ** Profile: "SCHEMATIC1-LAB11-3"  [ D:\KMITL\year1\term2\Circuit&Electronics\LAB\lab11-3-SCHEMATIC1-LAB11-3.sim ] 


 ****     BJT MODEL PARAMETERS


******************************************************************************




               X_U1A.x_lm358.qx 
               PNP             
          IS  800.000000E-18 
          BF  166.7          
          NF    1            
          BR    1            
          NR    1            
          CN    2.2          
           D     .52         


**** 04/05/22 16:56:26 ******** PSpice 9.2.3 (Jan 2002) ******* ID# 251265024 

 ** Profile: "SCHEMATIC1-LAB11-3"  [ D:\KMITL\year1\term2\Circuit&Electronics\LAB\lab11-3-SCHEMATIC1-LAB11-3.sim ] 


 ****     Current Controlled Switch MODEL PARAMETERS


******************************************************************************




               X_U1A.x_lm358.sw2 
         RON    1            
        ROFF   10.000000E+06 
         ION    0            
        IOFF   -1.000000E-06 


               X_U1A.x_lm358.sw1 
         RON    1            
        ROFF   10.000000E+06 
         ION   -1.000000E-06 
        IOFF    0            


               X_U1A.x_lm358.sw3 
         RON    1            
        ROFF   10.000000E+06 
         ION   -1.000000E-06 
        IOFF    0            


               X_U1A.x_lm358.sw4 
         RON    1            
        ROFF   10.000000E+06 
         ION    0            
        IOFF   -1.000000E-06 


**** 04/05/22 16:56:26 ******** PSpice 9.2.3 (Jan 2002) ******* ID# 251265024 

 ** Profile: "SCHEMATIC1-LAB11-3"  [ D:\KMITL\year1\term2\Circuit&Electronics\LAB\lab11-3-SCHEMATIC1-LAB11-3.sim ] 


 ****     INITIAL TRANSIENT SOLUTION       TEMPERATURE =   27.000 DEG C


******************************************************************************



 NODE   VOLTAGE     NODE   VOLTAGE     NODE   VOLTAGE     NODE   VOLTAGE


(    G)    3.0497  (   V+)   12.0000  (   V-)  -12.0000  (   VA)    5.0000      

( VO10)  -11.9850  (N00745)    2.4823 (N00772)    3.4398 (N00799)    3.6171     

(N00826)    4.0781 (N00859)    4.9950 (X_U1A.x_lm358.6)    1.4927               

(X_U1A.x_lm358.7)  -14.0160           (X_U1A.x_lm358.8)  -14.0160               

(X_U1A.x_lm358.9)    0.0000           (X_U1A.x_lm358.a)     .0406               

(X_U1A.x_lm358.b)  -11.9590           (X_U1A.x_lm358.10)    4.7165              

(X_U1A.x_lm358.11)  -12.0000          (X_U1A.x_lm358.12)  -11.9220              

(X_U1A.x_lm358.13)    4.7165          (X_U1A.x_lm358.14)    4.6893              

(X_U1A.x_lm358.53)   10.5000          (X_U1A.x_lm358.54)  -11.1780              

(X_U1A.x_lm358.90)  -40.6110          (X_U1A.x_lm358.91)   40.0000              

(X_U1A.x_lm358.92)  -40.0000          (X_U1A.x_lm358.99)    0.0000          




    VOLTAGE SOURCE CURRENTS
    NAME         CURRENT

    V_V3        -6.236E-03
    V_V1        -2.659E-03
    V_V2         1.464E-02
    X_U1A.x_lm358.vb   1.493E-05
    X_U1A.x_lm358.vc   2.249E-11
    X_U1A.x_lm358.ve  -2.863E-02
    X_U1A.x_lm358.vlim  -4.061E-02
    X_U1A.x_lm358.vlp  -8.061E-11
    X_U1A.x_lm358.vln   1.438E-05

    TOTAL POWER DISSIPATION   2.62E-01  WATTS



          JOB CONCLUDED

**** 04/05/22 16:56:26 ******** PSpice 9.2.3 (Jan 2002) ******* ID# 251265024 

 ** Profile: "SCHEMATIC1-LAB11-3"  [ D:\KMITL\year1\term2\Circuit&Electronics\LAB\lab11-3-SCHEMATIC1-LAB11-3.sim ] 


 ****     JOB STATISTICS SUMMARY


******************************************************************************



  Total job time (using Solver 0)   =         .03
